! Copyright - Freescale Semiconductor, Inc. 2016
! 01/21/2016
! Rev 0
! AFIC901N Final S-Parameters
! Vdd=7.5 Vdc, IDQ=90mA
# hz S ma R 50
!
! freq  magS11  angS11  magS21  angS21  magS12  angS12  magS22  angS22  
!     
          50000000       0.947689122        -60.7295344         31.8634469         133.652797       0.0118098332         44.1015972        0.822646045        -47.0673317
          60000000       0.937568076        -65.8389502         30.7311437         131.088867       0.0136985878         41.3707373        0.810751997        -49.7028679
          70000000       0.925899266        -70.6352761         29.4372155         128.497418       0.0153189693          38.843318        0.797166866        -52.4662629
          80000000       0.916476435         -74.990094         28.0781037         126.066484       0.0167098418         36.6098735        0.782577854        -55.0502597
          90000000       0.906233794         -78.831205         26.6571055         123.889415        0.017827468         34.4937146        0.768248174        -57.3618493
         100000000       0.895916139         -82.127985         25.2436148         121.981887       0.0187464387         32.6333868        0.754819176         -59.341807
         110000000       0.886984307        -87.0200785          23.850412         118.257768       0.0194855836         29.0912682        0.742835188        -63.0105752
         120000000        0.87967829        -91.4728912         22.5836712         114.837595       0.0201062524         25.7370947        0.732466604        -66.3303684
         130000000       0.873166601        -95.4053663         21.3732444         111.719951       0.0206231281         22.6880512        0.723838069        -69.4045999
         140000000       0.867433338        -98.9990121         20.2607516          108.76796       0.0210491661         19.9595601        0.716103421        -72.2451382
         150000000        0.86223685        -102.313106         19.2367383          106.06389       0.0214254235         17.2999905        0.710178152        -74.8838356
         160000000       0.857929111         -105.34432         18.3145329         103.502161       0.0217295826         14.8942608         0.70556919        -77.3624082
         170000000       0.855613171        -108.177796         17.4569179         101.110062       0.0220316836         12.5922118        0.702304489        -79.6493526
         180000000       0.852567723        -110.781606         16.6681232          98.847194       0.0222491443          10.418361        0.699821605        -81.7645466
         190000000       0.849927401        -113.281846         15.9390491         96.6322007       0.0224331224         8.27217068        0.698100943        -83.7803653
         200000000       0.847738697        -115.588823         15.2782121         94.6012473       0.0226407906         6.32264731        0.696495403        -85.6934806
         210000000       0.846755029        -117.851573         14.6683918           92.65196       0.0228077309         4.44876001        0.695063197        -87.4977492
         220000000       0.846459939        -119.959709         14.0945228          90.724107       0.0229319587         2.66960703         0.69421674        -89.2699761
         230000000       0.846193457        -121.954331         13.5508008         88.8735894       0.0230384779        0.910089435        0.693708027        -90.9577057
         240000000       0.846295928         -123.85524         13.0657117         87.0881302       0.0231643903       -0.834369768        0.693609884         -92.625208
         250000000       0.845446363        -125.710698         12.5991519         85.2821076       0.0232706583        -2.48769238        0.693222753        -94.2704677
         260000000       0.845228433        -127.618277         12.1741234         83.5370327       0.0233559531        -4.16106732        0.692959151        -95.8899162
         270000000       0.844825673         -129.39633          11.770912         81.8122457       0.0234632274        -5.77855433        0.693340334        -97.5167597
         280000000       0.846357376         -131.22546         11.4022042         80.1011274       0.0235541708        -7.41407264        0.693743765        -99.1667521
         290000000       0.847059884        -132.863306         11.0529862          78.470215       0.0236539376        -8.96958495        0.694439801        -100.841895
         300000000       0.847871217        -134.632631         10.7214863         76.8000215       0.0237273985        -10.5315785        0.695424206        -102.480727
         310000000       0.848714054        -136.313718         10.3992902         75.1589397       0.0237622147        -12.1140603        0.696591233        -104.125687
         320000000       0.849540638        -137.982089         10.0919029         73.4743487        0.023738288        -13.7016513        0.697575209        -105.773588
         330000000       0.850926617        -139.642862          9.8013153         71.7627084       0.0237827045        -15.3162916        0.698513339        -107.496535
         340000000       0.850494517         -141.31092         9.52102864         70.0958814       0.0238398908        -16.9681186        0.700196188        -109.291475
         350000000       0.852205367        -142.949897         9.25561148         68.3660164       0.0238273451        -18.5389836        0.702270314        -111.093645
         360000000       0.852397682        -144.573498         8.99041837         66.6560189       0.0237809128        -20.2169811        0.704295119        -112.905814
         370000000       0.853423899        -146.303638         8.73637444         64.9180677       0.0237277727        -21.7619323        0.706642893        -114.667698
         380000000       0.854660626        -147.769192         8.49424494         63.2642578       0.0236767105        -23.4067422        0.709142888        -116.426227
         390000000       0.857214989        -149.294842         8.25762186         61.5832839       0.0236504316        -24.9397161        0.712063268        -118.231651
         400000000       0.858051725        -150.812869         8.02058042         59.9284981       0.0235206999        -26.5865019        0.714473511        -119.984085
         410000000       0.860087136        -152.273548          7.7901176         58.2359679       0.0233649281        -28.2770321        0.716820624        -121.825258
         420000000       0.860558343        -153.740982          7.5582385          56.471072       0.0232390677         -29.464928        0.718738249        -123.693243
         430000000       0.862558585        -155.096858         7.33803825         54.8510633       0.0231391542        -31.0092367        0.722364276        -125.515873
         440000000       0.863332503        -156.317002         7.11519134         53.2456974       0.0228758536        -32.4745026         0.72571587        -127.258397
         450000000       0.863807334        -157.672351          6.8926434         51.6453819       0.0226813628        -34.5216181           0.728244        -128.963899
         460000000       0.865971074        -158.852818         6.68496568         50.1011077       0.0224348543        -35.9350923        0.731246042         -130.65572
         470000000        0.86880636         -159.97652          6.4810534         48.6364788       0.0222228401        -37.3870212        0.734817685        -132.247137
         480000000       0.870154969        -161.076577         6.28177629         47.1666128       0.0219760099        -38.8657872         0.73841865        -133.844574
         490000000        0.87076366        -162.109613         6.07915467         45.7079226       0.0217065748        -40.0670774        0.742593156        -135.399997
         500000000       0.872762883        -163.122845         5.89211168          44.303283       0.0214414904         -41.465017        0.747254181        -136.891494
         510000000       0.873324929        -164.079881         5.70412973         42.9115976       0.0211201285        -42.8566024        0.752099514        -138.319212
         520000000         0.8753219        -164.976734         5.52687119         41.5586939       0.0208812395        -44.1558061        0.756698557        -139.711271
         530000000       0.875981639        -165.803511         5.35014471         40.2766022        0.020556605        -45.4273978         0.76121928        -141.031017
         540000000       0.878042323        -166.610123         5.18132351         39.0003028       0.0202893412        -46.6146972        0.765606448        -142.377999
         550000000       0.879939347        -167.364761         5.01880443         37.7491094       0.0200005018        -47.6440906        0.770033863        -143.662594
         560000000       0.881482044        -167.960632         4.85543198          36.612364       0.0196805576         -48.864536        0.774637782        -144.917902
         570000000       0.882367553        -168.552368         4.69898193          35.490356       0.0193900659         -49.794474        0.779321967        -146.099785
         580000000       0.883038376        -169.127814         4.54638592         34.3986967       0.0191005553        -50.7960333         0.78354068        -147.209619
         590000000       0.884149845        -169.680011         4.39997703         33.4021255       0.0187499782        -51.8551245        0.787426811        -148.266199
         600000000       0.885217316         -170.15306         4.25904909         32.3963924       0.0185017066        -52.9847076        0.790417313        -149.353803
         610000000       0.885544645        -170.675162         4.10803953         31.3933293       0.0182039904        -54.7204707        0.788881509        -150.514999
         620000000        0.88729521        -170.850654         3.98858667         30.9531815       0.0172152352        -54.6838185        0.795294864        -150.530065
         630000000       0.888692637         -171.30166          3.8747824          29.951297       0.0169440551         -54.431203        0.803924843        -151.600785
         640000000        0.88720638        -171.684011         3.74707591         29.1801302       0.0164093278        -51.8522698        0.810262338        -152.473352
         650000000       0.889461832        -171.522696         3.64441796         28.6018419       0.0180363114        -55.1511581        0.813577286        -153.493301
         660000000       0.893097664        -171.857413         3.53868654         27.7843666       0.0172276925        -57.2073334         0.81674773        -154.085085
         670000000       0.893031423        -172.139281         3.43325883         27.1369072       0.0167679194        -57.9307928        0.820316045        -154.651238
         680000000       0.893780029        -172.377369         3.33758887         26.5213502       0.0164799218        -58.4705498        0.824097543        -155.263697
         690000000       0.895915941        -172.487816         3.24159126         25.9869652       0.0161598923        -58.8882348        0.827755235        -155.800966
         700000000       0.895234592        -172.619729         3.15067421         25.4598878       0.0159381469        -59.3794222        0.830956967        -156.273946
         710000000       0.896847148        -172.802439          3.0663965         24.9420524       0.0156643014        -59.9125776        0.834008166        -156.725185
         720000000       0.898717172        -172.865362         2.98702973         24.5004731       0.0154312619        -60.4038369        0.836980827         -157.10775
         730000000       0.898740046        -173.019197         2.91132021         24.0440874       0.0152319768        -60.7649826        0.839402301        -157.468744
         740000000       0.899414756        -173.018141         2.83607505         23.6016045       0.0150598837        -61.2339955        0.841469702        -157.783104
         750000000       0.899782302        -173.219756         2.76734803         23.1854519       0.0148696204        -61.5298481        0.844066242        -158.128352
         760000000       0.899188358        -173.229402         2.70161064         22.7771478       0.0146805468        -61.9638522        0.846308328        -158.438591
         770000000       0.900764697        -173.426145         2.64086782         22.3837817       0.0145565257        -62.1279183        0.848561328        -158.725834
         780000000       0.900879367        -173.444906         2.58116847         22.0833719       0.0143715418        -62.4921281        0.850710867        -158.959158
         790000000       0.901088369        -173.614731          2.5254088         21.6892773       0.0142388968        -62.9055227        0.852506822         -159.18958
         800000000        0.90080032         -173.74565         2.47429842         21.3796194       0.0140744701        -63.2623806        0.853525116        -159.395471
         810000000       0.902447169        -173.865755         2.42269158         21.0074154       0.0139453475        -63.5427846        0.854350438        -159.632667
         820000000       0.901395441        -173.948151         2.37291927         20.6583225       0.0137804362        -63.9540775        0.855137076        -159.888658
         830000000       0.901987705        -174.110451         2.32975212         20.3397327       0.0137296368        -64.1392673        0.856568176        -160.207469
         840000000       0.900872914        -174.318514         2.28450866         19.9885646       0.0136494879        -64.4437354        0.857914682        -160.502188
         850000000       0.901882959        -174.516877         2.24418336         19.5920309        0.013532045        -64.8950691        0.859758175        -160.799272
         860000000       0.903181876        -174.825094         2.20562421         19.1857276       0.0133686301        -65.1748724        0.861323423        -161.043252
         870000000       0.901963619        -175.061542         2.16782243         18.8429842       0.0133499122        -65.6719158        0.862658025        -161.308095
         880000000       0.903194748        -175.302934         2.13038524         18.4992698       0.0132227494        -65.9484302        0.863558518        -161.569448
         890000000       0.903276564        -175.664809         2.09657193         18.0420326       0.0131725143        -66.4549674          0.8645343        -161.914659
         900000000       0.902587287         -175.97435         2.06296157         17.5936195       0.0131171126        -66.8283805        0.865807798         -162.27459
         910000000       0.904140951        -176.322894         2.03404634         17.1254217       0.0130313165        -67.2985783        0.867742515        -162.655874
         920000000       0.903609289        -176.680638         2.00036004         16.6635551       0.0129830718        -67.7654449        0.869779526          -163.0245
         930000000       0.902941615        -177.135651         1.97033379         16.1930567       0.0128799383        -68.3579433        0.872055924        -163.351389
         940000000       0.904869337        -177.624912         1.94329245         15.6895418        0.012806858        -69.0514582        0.874168795        -163.688278
         950000000       0.905015648        -178.021478         1.91668777         15.2104142       0.0127569686        -69.2965858        0.875803248        -164.031054
         960000000       0.906375065         -178.39731         1.88840456         14.7355189       0.0127303893        -70.0984811        0.877357681        -164.392273
         970000000       0.906730688        -178.966913         1.85816194         14.1811177       0.0126085354        -70.4418823        0.878929959         -164.83328
         980000000       0.907578487         -179.48736         1.83216302         13.5261905       0.0125331854        -71.0698095        0.879835708        -165.261986
         990000000       0.908616966         -179.94195         1.80799547         12.9982447       0.0124695402        -71.7917553        0.881550452        -165.723247
            1e+009       0.909189726         179.505682         1.77933488         12.3272916       0.0124395845        -72.5697084        0.882583778        -166.172365
