! Copyright - Freescale Semiconductor, Inc. 2016
! 01/21/2016
! Rev 0
! AFIC901N Driver S-Parameters
! Vdd=7.5 Vdc, IDQ=8mA
# hz S ma R 50
!
! freq  magS11  angS11  magS21  angS21  magS12  angS12  magS22  angS22  
!     
          50000000       0.991884004        -20.3370279         3.59369208         160.368103      0.00177841165         70.0523034        0.982098188        -17.5345494
          60000000       0.991536166        -18.4897441         3.60352088          162.49783      0.00211739141         72.4664304         0.98281598        -15.1138147
          70000000       0.991418258        -16.9411795         3.61489633          164.34885       0.0024938398         74.7412501        0.984179385        -13.0725376
          80000000       0.993398079        -15.6695872         3.62606719         165.918988      0.00285745125         75.7599884        0.985500674        -11.2543313
          90000000       0.994186553        -14.4334666         3.63610515         167.371219      0.00323653608         77.3784186        0.986941556        -9.55683939
         100000000       0.996264182         -13.387083         3.64368602         168.703882      0.00358102676         79.1553819        0.988278649        -7.95646855
         110000000       0.996779607         -14.532628         3.62508422         167.652705      0.00392200958         77.9718049        0.987710939         -8.6710641
         120000000       0.995509704        -15.7623549         3.60587741         166.657301      0.00426215641         76.9356007        0.987212963        -9.34698445
         130000000       0.995139988        -16.9465897         3.58482463         165.635157      0.00457401658         76.2722368        0.986142732        -10.0221114
         140000000       0.995024559        -18.0121632         3.56450891         164.676583      0.00487095994         75.0821827        0.985009678        -10.6771884
         150000000       0.992877705        -19.1592015         3.54158834         163.661129       0.0052178997         74.6232892        0.984035495        -11.3276231
         160000000       0.990953436        -20.1705853         3.51950641         162.765332      0.00550220389         73.7058323        0.983095515        -11.9567088
         170000000       0.989806038        -21.1392502          3.4992591         161.890135      0.00581628601         72.9971346        0.982638309        -12.5584931
         180000000       0.989274947         -22.167276         3.47922557          161.02381      0.00614269351         72.5430099        0.982217296        -13.1109875
         190000000        0.98880891        -23.1416604         3.45988981         160.241126      0.00642331917         71.4312262        0.981871607        -13.6271018
         200000000       0.986660011        -23.9980771         3.43704672         159.482056      0.00671071959         70.8017564        0.981225235        -14.0909842
         210000000       0.985783462        -24.9240995         3.41694442         158.735167      0.00696624839         69.7520668        0.980025333        -14.5337445
         220000000       0.984993454        -25.7709574         3.39958098         158.012793      0.00728363987         69.6085926        0.978814984         -14.991392
         230000000       0.982081862        -26.6494403         3.37945563         157.277887      0.00751400082         68.7894874        0.977478726         -15.449536
         240000000       0.981434652        -27.4365534         3.36290784         156.637544      0.00780799853         68.0769437        0.976887504        -15.8884482
         250000000       0.980112791        -28.2880165         3.34760488          155.96252      0.00805753299           67.46912         0.97628596        -16.2864303
         260000000       0.978085039        -29.0365693         3.33811698          155.32382      0.00834133736         67.0447203        0.976000089        -16.6545816
         270000000       0.978326857        -29.8369618         3.32263669         154.685815      0.00859704434         66.4411647         0.97535366        -16.9929457
         280000000       0.976592683        -30.5228882         3.31232587         154.145342      0.00888751586         66.1279023        0.974438199        -17.3133188
         290000000        0.97452293        -31.3356279         3.30100756         153.496637      0.00916388789         65.6052368        0.972923243         -17.645801
         300000000       0.971748002        -32.0797459         3.29064033         152.926045      0.00942886135          65.093045        0.971373349        -18.0000282
         310000000       0.970677371         -32.892867         3.28185179         152.257287      0.00968843787         64.4941867        0.969997563        -18.3776235
         320000000       0.968806519         -33.685099         3.27629004         151.645583      0.00997189171         63.8203829        0.968910014        -18.7394218
         330000000        0.96863058        -34.4815358         3.27309471          150.98453       0.0102185628         63.4646299        0.967893294        -19.1017068
         340000000       0.966759141        -35.2941157         3.27164019         150.343374       0.0105005764         62.8445739        0.966962942        -19.4630371
         350000000       0.965481114        -36.1147854         3.27233704         149.736219       0.0108139414         62.4379187        0.966396661          -19.81939
         360000000       0.962960358        -36.8698261          3.2731495         149.105814       0.0110537568         61.8052137        0.964887384        -20.2102413
         370000000        0.96212502        -37.7232314         3.27284572         148.466869       0.0113874418         61.3811686        0.963703603        -20.6387522
         380000000       0.961483436        -38.5676087         3.27308248         147.802093       0.0116321273         60.7188927        0.962186484        -21.0888593
         390000000       0.958659472        -39.4461415         3.27808306         147.102223       0.0119431091         60.0104228        0.960895206        -21.5559264
         400000000       0.957071194          -40.34577         3.27959685         146.415614        0.012226602         59.2499141        0.960266524        -22.0158138
         410000000       0.955393743        -41.3085865         3.28282181         145.688509       0.0125407141         58.9270088        0.958963734         -22.490389
         420000000       0.956503033        -42.3023911         3.29428433         144.930171       0.0129424341         58.1919706        0.958928104        -22.9979814
         430000000       0.951592585        -43.5917143         3.30115283         143.917326       0.0133947934          53.012026        0.954973196        -23.6393167
         440000000       0.951321553        -43.7229802         3.27511376         143.706817       0.0127410736         67.0298167        0.957459023        -23.5269401
         450000000       0.953991742        -45.1641583         3.30256239         142.861525       0.0140580769         56.9345247        0.956920897        -24.5200527
         460000000        0.95370098        -46.3122492         3.31299128         141.945826       0.0140740823         55.5268259         0.95554583        -25.1124694
         470000000       0.953264491        -47.4676177         3.31780576         141.105264       0.0143340146         54.6952645          0.9546953        -25.7122659
         480000000       0.951700621        -48.5550844          3.3276324         140.230996       0.0145455661         53.8949959        0.953880425        -26.3421346
         490000000       0.952287808        -49.7916569          3.3333025         139.238574       0.0148258552         53.1815744        0.953189083        -27.0046378
         500000000        0.95178071        -50.9859304         3.33823315         138.290159       0.0150653387         52.3411592        0.952641113        -27.6954959
         510000000        0.95059607         -52.231758          3.3435735         137.305786        0.015355292         51.3147863        0.952448999        -28.3732495
         520000000       0.949699546        -53.4265087         3.34979676         136.368442        0.015583678         50.3644419        0.951928554        -29.0681322
         530000000       0.948639282        -54.6503274          3.3497378         135.353845       0.0157719349         49.3868453        0.951270674        -29.7604519
         540000000       0.947689762        -55.8541398         3.34991346         134.367013       0.0160773049         48.5610131        0.950702971        -30.4607418
         550000000       0.947605865        -57.1459779         3.35046898           133.3425       0.0162554271         47.6954998        0.949891182         -31.183784
         560000000       0.946878034        -58.5071008         3.34931599         132.284408       0.0164984574         46.5644082         0.94914241        -31.9475063
         570000000       0.945992836         -59.742082         3.34589285         131.234937       0.0167064864         45.7524367        0.949025918        -32.7491895
         580000000       0.944960472        -61.0808684         3.33891708         130.137998       0.0168766736         44.7818984        0.948698887        -33.5606344
         590000000       0.944543425        -62.3734849         3.33398478         129.064282       0.0171183578         43.7736821        0.948312161        -34.3119051
         600000000       0.943777018        -63.7019243         3.32785222         127.993915       0.0172185659         42.8652148        0.947728654        -35.0702849
         610000000       0.942847548        -64.9074286         3.31805565         126.914295        0.017348498         41.8655952        0.947052128        -35.8268185
         620000000       0.942024201        -66.1938739         3.30503091          125.86136       0.0175125959         40.8686603        0.945956143        -36.5913386
         630000000       0.942107697        -67.4183326         3.29131567         124.825196       0.0176576952         40.0533957        0.945132762        -37.3751583
         640000000       0.941196725        -68.6685642         3.27579409         123.728624       0.0177913366         38.9898238        0.944400313        -38.2236162
         650000000       0.940298516        -69.8704397         3.26231524         122.685359       0.0178825432         38.1181594         0.94400057        -39.0040449
         660000000       0.938563104        -71.0576412         3.24510689         121.684716       0.0180047316         37.1482161        0.943976949        -39.7524968
         670000000         0.9375985        -72.2016512          3.2249716         120.671271       0.0180707258          36.255571        0.943738064        -40.4812806
         680000000       0.936391844        -73.2646998         3.20523921         119.768459       0.0181533778         35.3154593        0.942967711        -41.1658073
         690000000       0.935593808        -74.4036951          3.1852388         118.756985       0.0181599899         34.3546849        0.942145797        -41.8370852
         700000000       0.934235802        -75.4241682         3.16334608         117.822247        0.018231463         33.6833467        0.941116808        -42.5458234
         710000000       0.933316417        -76.4640429         3.14136629         116.868455       0.0182551353         32.8866552        0.940740022         -43.234057
         720000000       0.932678813        -77.4568831         3.11897234         115.957866       0.0183042078         31.8890164        0.940112669        -43.9247413
         730000000       0.930954593        -78.4077013         3.09784835         115.118612       0.0183213439         31.2159649        0.940029724        -44.5621773
         740000000       0.930309348        -79.4027628         3.07572808         114.251379       0.0182907292         30.5010086        0.939594895        -45.1652785
         750000000       0.928846361        -80.2728468         3.05389962         113.477034       0.0183143366         29.6380343        0.939191509         -45.709136
         760000000       0.927882178        -81.1469601         3.03249529         112.666383       0.0183397809          29.021483        0.938225311        -46.2461955
         770000000       0.926524029        -82.0144983         3.01000632         111.934469       0.0183292124         28.3936687        0.937685891        -46.7662329
         780000000       0.924969119        -82.8025693         2.98887877         111.124953       0.0183077947         27.8361534        0.936362351        -47.3025116
         790000000       0.923209948        -83.6131135         2.96565131         110.430054       0.0182780024          27.099454        0.935470174        -47.8553775
         800000000       0.922200798        -84.3916442         2.94635629         109.683485        0.018301957         26.4832849        0.934717468        -48.3788413
         810000000       0.920976497        -85.1835282         2.92827578          109.01917         0.01827295         26.0218701        0.934142499        -48.8368442
         820000000       0.919074857        -85.9447783         2.91053012         108.299197       0.0182553996          25.392397        0.933460934        -49.2705647
         830000000       0.917888192        -86.7220836          2.8924695         107.648814       0.0182614131         24.7967138        0.932012903        -49.6917153
         840000000       0.915208416        -87.3844108         2.87357412         106.985289       0.0182439693         24.3027888        0.930485664        -50.1352238
         850000000        0.91450861        -88.1314253          2.8592307         106.340377       0.0182423306          23.730267        0.928464374        -50.5848644
         860000000       0.913283837        -88.7680747         2.84452095         105.724151       0.0182534082         23.3052613        0.926957275        -51.0569836
         870000000       0.910349237        -89.5277495         2.82991359         105.077223       0.0182200614         22.7415332        0.925220954        -51.5485331
         880000000       0.909333724        -90.3023316         2.81524785         104.444454       0.0181947009         22.1403236        0.924222143        -52.0179337
         890000000       0.907469795        -90.9654706         2.80491025         103.844417       0.0182113787         21.6876168        0.923189527        -52.4457895
         900000000       0.905247911        -91.7476667         2.79299533         103.191537       0.0181922919         21.2811367        0.921589595        -52.8812652
         910000000        0.90364597        -92.4313466         2.78445486         102.564209       0.0181800302         20.6990093        0.920132412        -53.3718103
         920000000       0.901570026        -93.2676994         2.77473558         101.896963       0.0182226012          20.067363        0.918650489        -53.8785382
         930000000       0.899677557         -94.006731         2.76619883         101.267353       0.0181962104         19.5188526        0.917116629        -54.3915358
         940000000       0.898665312        -94.8070237         2.75738311         100.590914       0.0181537826         19.1003141        0.915537739        -54.9551188
         950000000       0.896304706        -95.6576824         2.74981419         99.9276092       0.0181397979         18.4015092        0.914588546        -55.5307477
         960000000       0.896019488        -96.4489988         2.74211555         99.2281206       0.0181384993         17.8469206        0.913610566        -56.0658662
         970000000       0.892838072        -97.2898509         2.73544312         98.5004526       0.0181804715         17.2692526        0.912667296        -56.6445125
         980000000       0.892821014        -98.2491806         2.73131986         97.7594567       0.0181439044         16.7133567        0.911776502        -57.2343442
         990000000       0.889684892        -99.1428332         2.72503454         97.0133386       0.0180917343         15.9548386        0.911126836        -57.8541924
            1e+009       0.888911066        -100.078275         2.72180015          96.258159       0.0180585053          15.371159        0.910187516        -58.4899408
